
**** 06/05/20 12:56:13 ****** PSpice Lite (October 2012) ****** ID# 10813 ****

 ** Profile: "SCHEMATIC1-bias"  [ C:\Users\paule\Documents\Polytech Sorbonne\3A\S2\Projet Court\porjet_court-pspicefiles\schematic1\b


 ****     CIRCUIT DESCRIPTION


******************************************************************************




** Creating circuit file "bias.cir" 
** WARNING: THIS AUTOMATICALLY GENERATED FILE MAY BE OVERWRITTEN BY SUBSEQUENT SIMULATIONS

*Libraries: 
* Profile Libraries :
.INC "C:\Users\paule\Documents\Polytech Sorbonne\3A\S2\Projet Court\porjet_court-pspicefiles\schematic1\bias\bias_profile.inc" 
* Local Libraries :
* From [PSPICE NETLIST] section of C:\SPB_DATA\cdssetup\OrCAD_PSpice/16.6.0/PSpice.ini file:

**** INCLUDING bias_profile.inc ****
.LIB    ".\lm386.lib" 

**** RESUMING bias.cir ****
.lib "nomd.lib" 

*Analysis directives: 
.TRAN  0 10ms 0 
.OPTIONS ADVCONV
.PROBE64 V(alias(*)) I(alias(*)) W(alias(*)) D(alias(*)) NOISE(alias(*)) 
.INC "..\SCHEMATIC1.net" 



**** INCLUDING SCHEMATIC1.net ****
* source PORJET_COURT
V_V1         VCC 0 5V
X_R15         0 N36946 N36011 POT PARAMS: SET=0.5 VALUE=100
X_U1         N36826 0 N36950 0 N36306 VCC N36123 N36897 LM386 
V_V2         N36011 0  AC 1
+SIN 0 0.014 1k 0 0 0
C_C1         N36826 N36897  10u  TC=0,0 
C_C2         N36946 N36950  10u  TC=0,0 
C_C3         0 N36123  10u  TC=0,0 
C_C4         N36306 OUT  220u  TC=0,0 
C_C5         N37235 N36306  47n  TC=0,0 
R_R16         0 N37235  10 TC=0,0 
R_R17         OUT 0  10MEG TC=0,0 
R_R18         OUT 0  10k TC=0,0 
R_R19         VCC OUT  10k TC=0,0 

**** RESUMING bias.cir ****
.END

**** 06/05/20 12:56:13 ****** PSpice Lite (October 2012) ****** ID# 10813 ****

 ** Profile: "SCHEMATIC1-bias"  [ C:\Users\paule\Documents\Polytech Sorbonne\3A\S2\Projet Court\porjet_court-pspicefiles\schematic1\b


 ****     BJT MODEL PARAMETERS


******************************************************************************




               X_U1.ddnpn      X_U1.ddpnp      
               NPN             PNP             
       LEVEL    1               1            
          IS   10.000000E-15   10.000000E-15 
          BF  400             200            
          NF    1               1            
         VAF  100             100            
          BR    1               1            
          NR    1               1            
         VAR  100             100            
         ISS    0               0            
          RE    0               0            
          RC    0               0            
         CJE    5.000000E-12    5.000000E-12 
         VJE     .75             .75         
         MJE     .3333           .3333       
         CJC    2.000000E-12    2.000000E-12 
         VJC     .75             .75         
         MJC     .3333           .3333       
        XCJC    1               1            
         CJS    0               0            
         VJS     .75             .75         
          TF    1.000000E-09    1.000000E-09 
         VTF   10              10            
         ITF    1               1            
          TR   10.000000E-09   10.000000E-09 
         XTB    1.5             1.5          
          KF    0               0            
          AF    1               1            
          CN    2.42            2.2          
           D     .87             .52         


**** 06/05/20 12:56:13 ****** PSpice Lite (October 2012) ****** ID# 10813 ****

 ** Profile: "SCHEMATIC1-bias"  [ C:\Users\paule\Documents\Polytech Sorbonne\3A\S2\Projet Court\porjet_court-pspicefiles\schematic1\b


 ****     INITIAL TRANSIENT SOLUTION       TEMPERATURE =   27.000 DEG C


******************************************************************************



 NODE   VOLTAGE     NODE   VOLTAGE     NODE   VOLTAGE     NODE   VOLTAGE


(  OUT)    2.4988  (  VCC)    5.0000  (N36011)    0.0000 (N36123)    3.0347     

(N36306)    3.3063 (N36826)    1.0739 (N36897)    1.0698 (N36946)    0.0000     

(N36950) 182.8E-06 (N37235)    0.0000 (X_U1.10002)    4.3034                    

(X_U1.10004)    3.9022                (X_U1.10008)    1.0693                    

(X_U1.10009)    3.3248                (X_U1.10011)     .4661                    

(X_U1.10012)     .4685                (X_U1.10013)     .6030                    

(X_U1.10014)     .6961                (X_U1.10017)    2.7474                    

(X_U1.10018)     .5952                




    VOLTAGE SOURCE CURRENTS
    NAME         CURRENT

    V_V1        -1.556E-02
    V_V2         0.000E+00

    TOTAL POWER DISSIPATION   7.78E-02  WATTS



          JOB CONCLUDED

**** 06/05/20 12:56:13 ****** PSpice Lite (October 2012) ****** ID# 10813 ****

 ** Profile: "SCHEMATIC1-bias"  [ C:\Users\paule\Documents\Polytech Sorbonne\3A\S2\Projet Court\porjet_court-pspicefiles\schematic1\b


 ****     JOB STATISTICS SUMMARY


******************************************************************************



  Total job time (using Solver 1)   =         .05
